<Qucs Dataset 0.0.19>
<indep time 100>
  +0.00000000000000000000e+00
  +2.02020202020202018333e-06
  +4.04040404040404036665e-06
  +6.06060606060606012647e-06
  +8.08080808080808073331e-06
  +1.01010101010101013402e-05
  +1.21212121212121202529e-05
  +1.41414141414141408598e-05
  +1.61616161616161614666e-05
  +1.81818181818181820735e-05
  +2.02020202020202026803e-05
  +2.22222222222222232871e-05
  +2.42424242424242405059e-05
  +2.62626262626262611127e-05
  +2.82828282828282817195e-05
  +3.03030303030303023264e-05
  +3.23232323232323229332e-05
  +3.43434343434343401519e-05
  +3.63636363636363641469e-05
  +3.83838383838383813656e-05
  +4.04040404040404053606e-05
  +4.24242424242424225793e-05
  +4.44444444444444465743e-05
  +4.64646464646464637930e-05
  +4.84848484848484810117e-05
  +5.05050505050505050067e-05
  +5.25252525252525222254e-05
  +5.45454545454545462204e-05
  +5.65656565656565634391e-05
  +5.85858585858585874341e-05
  +6.06060606060606046528e-05
  +6.26262626262626218715e-05
  +6.46464646464646458665e-05
  +6.66666666666666698614e-05
  +6.86868686868686803039e-05
  +7.07070707070707042989e-05
  +7.27272727272727282938e-05
  +7.47474747474747522888e-05
  +7.67676767676767627313e-05
  +7.87878787878787867262e-05
  +8.08080808080808107212e-05
  +8.28282828282828211637e-05
  +8.48484848484848451586e-05
  +8.68686868686868691536e-05
  +8.88888888888888931486e-05
  +9.09090909090909035910e-05
  +9.29292929292929275860e-05
  +9.49494949494949515810e-05
  +9.69696969696969620234e-05
  +9.89898989898989860184e-05
  +1.01010101010101010013e-04
  +1.03030303030303034008e-04
  +1.05050505050505044451e-04
  +1.07070707070707068446e-04
  +1.09090909090909092441e-04
  +1.11111111111111116436e-04
  +1.13131313131313126878e-04
  +1.15151515151515150873e-04
  +1.17171717171717174868e-04
  +1.19191919191919185311e-04
  +1.21212121212121209306e-04
  +1.23232323232323233301e-04
  +1.25252525252525243743e-04
  +1.27272727272727281290e-04
  +1.29292929292929291733e-04
  +1.31313131313131302175e-04
  +1.33333333333333339723e-04
  +1.35353535353535350165e-04
  +1.37373737373737360608e-04
  +1.39393939393939398155e-04
  +1.41414141414141408598e-04
  +1.43434343434343446145e-04
  +1.45454545454545456588e-04
  +1.47474747474747467030e-04
  +1.49494949494949504578e-04
  +1.51515151515151515020e-04
  +1.53535353535353525463e-04
  +1.55555555555555563010e-04
  +1.57575757575757573452e-04
  +1.59595959595959583895e-04
  +1.61616161616161621442e-04
  +1.63636363636363631885e-04
  +1.65656565656565642327e-04
  +1.67676767676767679875e-04
  +1.69696969696969690317e-04
  +1.71717171717171727865e-04
  +1.73737373737373738307e-04
  +1.75757575757575748750e-04
  +1.77777777777777786297e-04
  +1.79797979797979796740e-04
  +1.81818181818181807182e-04
  +1.83838383838383844730e-04
  +1.85858585858585855172e-04
  +1.87878787878787865614e-04
  +1.89898989898989903162e-04
  +1.91919191919191913604e-04
  +1.93939393939393924047e-04
  +1.95959595959595961594e-04
  +1.97979797979797972037e-04
  +2.00000000000000009584e-04
</indep>
<dep Pr1.Vt time>
  +0.00000000000000000000e+00
  +5.00000000000000000000e+00
  +5.00000000000000000000e+00
  +5.00000000000000000000e+00
  +5.00000000000000000000e+00
  +5.00000000000000000000e+00
  +5.00000000000000000000e+00
  +5.00000000000000000000e+00
  +5.00000000000000000000e+00
  +5.00000000000000000000e+00
  +5.00000000000000000000e+00
  +5.00000000000000000000e+00
  +5.00000000000000000000e+00
  +5.00000000000000000000e+00
  +5.00000000000000000000e+00
  +5.00000000000000000000e+00
  +5.00000000000000000000e+00
  +5.00000000000000000000e+00
  +5.00000000000000000000e+00
  +5.00000000000000000000e+00
  +5.00000000000000000000e+00
  +5.00000000000000000000e+00
  +5.00000000000000000000e+00
  +5.00000000000000000000e+00
  +5.00000000000000000000e+00
  +5.00000000000000000000e+00
  +5.00000000000000000000e+00
  +5.00000000000000000000e+00
  +5.00000000000000000000e+00
  +5.00000000000000000000e+00
  +5.00000000000000000000e+00
  +5.00000000000000000000e+00
  +5.00000000000000000000e+00
  +5.00000000000000000000e+00
  +5.00000000000000000000e+00
  +5.00000000000000000000e+00
  +5.00000000000000000000e+00
  +5.00000000000000000000e+00
  +5.00000000000000000000e+00
  +5.00000000000000000000e+00
  +5.00000000000000000000e+00
  +5.00000000000000000000e+00
  +5.00000000000000000000e+00
  +5.00000000000000000000e+00
  +5.00000000000000000000e+00
  +5.00000000000000000000e+00
  +5.00000000000000000000e+00
  +5.00000000000000000000e+00
  +5.00000000000000000000e+00
  +5.00000000000000000000e+00
  +0.00000000000000000000e+00
  +0.00000000000000000000e+00
  +0.00000000000000000000e+00
  +0.00000000000000000000e+00
  +0.00000000000000000000e+00
  +0.00000000000000000000e+00
  +0.00000000000000000000e+00
  +0.00000000000000000000e+00
  +0.00000000000000000000e+00
  +0.00000000000000000000e+00
  +0.00000000000000000000e+00
  +0.00000000000000000000e+00
  +0.00000000000000000000e+00
  +0.00000000000000000000e+00
  +0.00000000000000000000e+00
  +0.00000000000000000000e+00
  +0.00000000000000000000e+00
  +0.00000000000000000000e+00
  +0.00000000000000000000e+00
  +0.00000000000000000000e+00
  +0.00000000000000000000e+00
  +0.00000000000000000000e+00
  +0.00000000000000000000e+00
  +0.00000000000000000000e+00
  +0.00000000000000000000e+00
  +0.00000000000000000000e+00
  +0.00000000000000000000e+00
  +0.00000000000000000000e+00
  +0.00000000000000000000e+00
  +0.00000000000000000000e+00
  +0.00000000000000000000e+00
  +0.00000000000000000000e+00
  +0.00000000000000000000e+00
  +0.00000000000000000000e+00
  +0.00000000000000000000e+00
  +0.00000000000000000000e+00
  +0.00000000000000000000e+00
  +0.00000000000000000000e+00
  +0.00000000000000000000e+00
  +0.00000000000000000000e+00
  +0.00000000000000000000e+00
  +0.00000000000000000000e+00
  +0.00000000000000000000e+00
  +0.00000000000000000000e+00
  +0.00000000000000000000e+00
  +0.00000000000000000000e+00
  +0.00000000000000000000e+00
  +0.00000000000000000000e+00
  +0.00000000000000000000e+00
  +1.35525271560688054251e-10
</dep>
<dep Pr2.Vt time>
  +0.00000000000000000000e+00
  +9.14430963196799839743e-01
  +1.66187806661730763658e+00
  +2.27276240368786242030e+00
  +2.77198248256055457261e+00
  +3.17959656938497525758e+00
  +3.51272816633894446881e+00
  +3.78496123102587489484e+00
  +4.00737260073162726570e+00
  +4.18905046183045826069e+00
  +4.33746659108435750341e+00
  +4.45873417009410655254e+00
  +4.55781718462655760504e+00
  +4.63873210778827438361e+00
  +4.70485048374784220471e+00
  +4.75887994984797213505e+00
  +4.80301771900683949212e+00
  +4.83907497676896358740e+00
  +4.86853201734013829594e+00
  +4.89259699879093101771e+00
  +4.91225744955540033487e+00
  +4.92831942117908905487e+00
  +4.94144112116561284864e+00
  +4.95216078962052552725e+00
  +4.96091813751750354555e+00
  +4.96807238323996358531e+00
  +4.97391698738940135627e+00
  +4.97869169027061442279e+00
  +4.98259234581898891037e+00
  +4.98577895534961168522e+00
  +4.98838223066444630405e+00
  +4.99050895573056596533e+00
  +4.99224636686074507708e+00
  +4.99366573106696964857e+00
  +4.99482526936787873950e+00
  +4.99577254496168254860e+00
  +4.99654641422490453095e+00
  +4.99717862056539718907e+00
  +4.99769509650769094833e+00
  +4.99811702742153141088e+00
  +4.99846172052619053261e+00
  +4.99874331481692646406e+00
  +4.99897336103336975555e+00
  +4.99916129546046761334e+00
  +4.99931482699618801036e+00
  +4.99944025336334263443e+00
  +4.99954271943655204069e+00
  +4.99962642828019721009e+00
  +4.99969481355432332492e+00
  +4.99975068036014569373e+00
  +4.75209077996369355645e+00
  +3.88255354039534505972e+00
  +3.17200483656528398058e+00
  +2.59152901236504495941e+00
  +2.11720819178821173523e+00
  +1.72976600106933853240e+00
  +1.41317891325166367089e+00
  +1.15454611055431266564e+00
  +9.43251033610573164090e-01
  +7.70625360281407933982e-01
  +6.29592149648286802943e-01
  +5.14369621516222119695e-01
  +4.20234127262457735075e-01
  +3.43326499717226285568e-01
  +2.80493843220079863698e-01
  +2.29160277896320818680e-01
  +1.87221339201785047512e-01
  +1.52957703552657087176e-01
  +1.24964703146827241231e-01
  +1.02094740375064510496e-01
  +8.34102410502664814995e-02
  +6.81452177311455270514e-02
  +5.56738673950925022638e-02
  +4.54849160942616473347e-02
  +3.71606588315505359521e-02
  +3.03598353778015243865e-02
  +2.48036400093273011469e-02
  +2.02642916226791133805e-02
  +1.65556956484840117616e-02
  +1.35258149413167230724e-02
  +1.10504368835445815344e-02
  +9.02808118009896035105e-03
  +7.37583958475248550185e-03
  +6.02597700383164514015e-03
  +4.92315463662927003258e-03
  +4.02216131272202515046e-03
  +3.28606002037632946577e-03
  +2.68467364134829418465e-03
  +2.19334781344768898689e-03
  +1.79194020333127293845e-03
  +1.46399475387696338842e-03
  +1.19606705368563003694e-03
  +9.77173171641334843002e-04
  +7.98339361019268748017e-04
  +6.52234172866328798697e-04
  +5.32867896819579881136e-04
  +4.35347007675287534043e-04
  +3.55673551030222896349e-04
  +2.90573168263746927677e-04
  +2.37381439192651833578e-04
</dep>
<dep V1.It time>
  +0.00000000000000000000e+00
  -4.08556903680319996857e-04
  -3.33812193338269285088e-04
  -2.72723759631213831696e-04
  -2.22801751743944502059e-04
  -1.82040343061502503472e-04
  -1.48727183366105530655e-04
  -1.21503876897412449280e-04
  -9.92627399268372753380e-05
  -8.10949538169542178193e-05
  -6.62533408915643297170e-05
  -5.41265829905893331234e-05
  -4.42182815373443299616e-05
  -3.61267892211725584299e-05
  -2.95149516252157101404e-05
  -2.41120050152027328924e-05
  -1.96982280993160873903e-05
  -1.60925023231036799440e-05
  -1.31467982659862572294e-05
  -1.07403001209069358726e-05
  -8.77425504445996512493e-06
  -7.16805788209115210541e-06
  -5.85588788343878625942e-06
  -4.78392103794747329537e-06
  -3.90818624824973686466e-06
  -3.19276167600368761257e-06
  -2.60830126105990756785e-06
  -2.13083097293860664057e-06
  -1.74076541810115441311e-06
  -1.42210446503888802983e-06
  -1.16177693355542545339e-06
  -9.49104426943526632843e-07
  -7.75363313925553354622e-07
  -6.33426893303034276028e-07
  -5.17473063212201163374e-07
  -4.22745503831766650249e-07
  -3.45358577509601374911e-07
  -2.82137943460251776340e-07
  -2.30490349230989474694e-07
  -1.88297257846842432116e-07
  -1.53827947380925922349e-07
  -1.25668518307460105876e-07
  -1.02663896662993220366e-07
  -8.38704539532801260360e-08
  -6.85173003812282813141e-08
  -5.59746636658552121357e-08
  -4.57280563447622773188e-08
  -3.73571719802920018672e-08
  -3.05186445677613563121e-08
  -2.49319639854207394936e-08
  +4.75209077996369382967e-04
  +3.88255354039534507620e-04
  +3.17200483656528413757e-04
  +2.59152901236504493686e-04
  +2.11720819178821170314e-04
  +1.72976600106933850551e-04
  +1.41317891325166386822e-04
  +1.15454611055431266738e-04
  +9.43251033610573185774e-05
  +7.70625360281407940054e-05
  +6.29592149648286843926e-05
  +5.14369621516222162738e-05
  +4.20234127262457721847e-05
  +3.43326499717226324491e-05
  +2.80493843220079866680e-05
  +2.29160277896320817813e-05
  +1.87221339201785063504e-05
  +1.52957703552657077581e-05
  +1.24964703146827240256e-05
  +1.02094740375064511499e-05
  +8.34102410502664843998e-06
  +6.81452177311455340716e-06
  +5.56738673950925030498e-06
  +4.54849160942616525253e-06
  +3.71606588315505393064e-06
  +3.03598353778015262635e-06
  +2.48036400093273009097e-06
  +2.02642916226791133195e-06
  +1.65556956484840132998e-06
  +1.35258149413167230283e-06
  +1.10504368835445818021e-06
  +9.02808118009896069156e-07
  +7.37583958475248563060e-07
  +6.02597700383164542814e-07
  +4.92315463662927064075e-07
  +4.02216131272202513182e-07
  +3.28606002037632964280e-07
  +2.68467364134829422107e-07
  +2.19334781344768903772e-07
  +1.79194020333127314216e-07
  +1.46399475387696339096e-07
  +1.19606705368562996494e-07
  +9.77173171641334909706e-08
  +7.98339361019268807097e-08
  +6.52234172866328838508e-08
  +5.32867896819579931852e-08
  +4.35347007675287566972e-08
  +3.55673551030222888196e-08
  +2.90573168263746953194e-08
  +2.37381303667380277231e-08
</dep>
<dep _net0.Vt time>
  +0.00000000000000000000e+00
  +5.00000000000000000000e+00
  +5.00000000000000000000e+00
  +5.00000000000000000000e+00
  +5.00000000000000000000e+00
  +5.00000000000000000000e+00
  +5.00000000000000000000e+00
  +5.00000000000000000000e+00
  +5.00000000000000000000e+00
  +5.00000000000000000000e+00
  +5.00000000000000000000e+00
  +5.00000000000000000000e+00
  +5.00000000000000000000e+00
  +5.00000000000000000000e+00
  +5.00000000000000000000e+00
  +5.00000000000000000000e+00
  +5.00000000000000000000e+00
  +5.00000000000000000000e+00
  +5.00000000000000000000e+00
  +5.00000000000000000000e+00
  +5.00000000000000000000e+00
  +5.00000000000000000000e+00
  +5.00000000000000000000e+00
  +5.00000000000000000000e+00
  +5.00000000000000000000e+00
  +5.00000000000000000000e+00
  +5.00000000000000000000e+00
  +5.00000000000000000000e+00
  +5.00000000000000000000e+00
  +5.00000000000000000000e+00
  +5.00000000000000000000e+00
  +5.00000000000000000000e+00
  +5.00000000000000000000e+00
  +5.00000000000000000000e+00
  +5.00000000000000000000e+00
  +5.00000000000000000000e+00
  +5.00000000000000000000e+00
  +5.00000000000000000000e+00
  +5.00000000000000000000e+00
  +5.00000000000000000000e+00
  +5.00000000000000000000e+00
  +5.00000000000000000000e+00
  +5.00000000000000000000e+00
  +5.00000000000000000000e+00
  +5.00000000000000000000e+00
  +5.00000000000000000000e+00
  +5.00000000000000000000e+00
  +5.00000000000000000000e+00
  +5.00000000000000000000e+00
  +5.00000000000000000000e+00
  +0.00000000000000000000e+00
  +0.00000000000000000000e+00
  +0.00000000000000000000e+00
  +0.00000000000000000000e+00
  +0.00000000000000000000e+00
  +0.00000000000000000000e+00
  +0.00000000000000000000e+00
  +0.00000000000000000000e+00
  +0.00000000000000000000e+00
  +0.00000000000000000000e+00
  +0.00000000000000000000e+00
  +0.00000000000000000000e+00
  +0.00000000000000000000e+00
  +0.00000000000000000000e+00
  +0.00000000000000000000e+00
  +0.00000000000000000000e+00
  +0.00000000000000000000e+00
  +0.00000000000000000000e+00
  +0.00000000000000000000e+00
  +0.00000000000000000000e+00
  +0.00000000000000000000e+00
  +0.00000000000000000000e+00
  +0.00000000000000000000e+00
  +0.00000000000000000000e+00
  +0.00000000000000000000e+00
  +0.00000000000000000000e+00
  +0.00000000000000000000e+00
  +0.00000000000000000000e+00
  +0.00000000000000000000e+00
  +0.00000000000000000000e+00
  +0.00000000000000000000e+00
  +0.00000000000000000000e+00
  +0.00000000000000000000e+00
  +0.00000000000000000000e+00
  +0.00000000000000000000e+00
  +0.00000000000000000000e+00
  +0.00000000000000000000e+00
  +0.00000000000000000000e+00
  +0.00000000000000000000e+00
  +0.00000000000000000000e+00
  +0.00000000000000000000e+00
  +0.00000000000000000000e+00
  +0.00000000000000000000e+00
  +0.00000000000000000000e+00
  +0.00000000000000000000e+00
  +0.00000000000000000000e+00
  +0.00000000000000000000e+00
  +0.00000000000000000000e+00
  +0.00000000000000000000e+00
  +1.35525271560688054251e-10
</dep>
<dep _net1.Vt time>
  +0.00000000000000000000e+00
  +9.14430963196799839743e-01
  +1.66187806661730763658e+00
  +2.27276240368786242030e+00
  +2.77198248256055457261e+00
  +3.17959656938497525758e+00
  +3.51272816633894446881e+00
  +3.78496123102587489484e+00
  +4.00737260073162726570e+00
  +4.18905046183045826069e+00
  +4.33746659108435750341e+00
  +4.45873417009410655254e+00
  +4.55781718462655760504e+00
  +4.63873210778827438361e+00
  +4.70485048374784220471e+00
  +4.75887994984797213505e+00
  +4.80301771900683949212e+00
  +4.83907497676896358740e+00
  +4.86853201734013829594e+00
  +4.89259699879093101771e+00
  +4.91225744955540033487e+00
  +4.92831942117908905487e+00
  +4.94144112116561284864e+00
  +4.95216078962052552725e+00
  +4.96091813751750354555e+00
  +4.96807238323996358531e+00
  +4.97391698738940135627e+00
  +4.97869169027061442279e+00
  +4.98259234581898891037e+00
  +4.98577895534961168522e+00
  +4.98838223066444630405e+00
  +4.99050895573056596533e+00
  +4.99224636686074507708e+00
  +4.99366573106696964857e+00
  +4.99482526936787873950e+00
  +4.99577254496168254860e+00
  +4.99654641422490453095e+00
  +4.99717862056539718907e+00
  +4.99769509650769094833e+00
  +4.99811702742153141088e+00
  +4.99846172052619053261e+00
  +4.99874331481692646406e+00
  +4.99897336103336975555e+00
  +4.99916129546046761334e+00
  +4.99931482699618801036e+00
  +4.99944025336334263443e+00
  +4.99954271943655204069e+00
  +4.99962642828019721009e+00
  +4.99969481355432332492e+00
  +4.99975068036014569373e+00
  +4.75209077996369355645e+00
  +3.88255354039534505972e+00
  +3.17200483656528398058e+00
  +2.59152901236504495941e+00
  +2.11720819178821173523e+00
  +1.72976600106933853240e+00
  +1.41317891325166367089e+00
  +1.15454611055431266564e+00
  +9.43251033610573164090e-01
  +7.70625360281407933982e-01
  +6.29592149648286802943e-01
  +5.14369621516222119695e-01
  +4.20234127262457735075e-01
  +3.43326499717226285568e-01
  +2.80493843220079863698e-01
  +2.29160277896320818680e-01
  +1.87221339201785047512e-01
  +1.52957703552657087176e-01
  +1.24964703146827241231e-01
  +1.02094740375064510496e-01
  +8.34102410502664814995e-02
  +6.81452177311455270514e-02
  +5.56738673950925022638e-02
  +4.54849160942616473347e-02
  +3.71606588315505359521e-02
  +3.03598353778015243865e-02
  +2.48036400093273011469e-02
  +2.02642916226791133805e-02
  +1.65556956484840117616e-02
  +1.35258149413167230724e-02
  +1.10504368835445815344e-02
  +9.02808118009896035105e-03
  +7.37583958475248550185e-03
  +6.02597700383164514015e-03
  +4.92315463662927003258e-03
  +4.02216131272202515046e-03
  +3.28606002037632946577e-03
  +2.68467364134829418465e-03
  +2.19334781344768898689e-03
  +1.79194020333127293845e-03
  +1.46399475387696338842e-03
  +1.19606705368563003694e-03
  +9.77173171641334843002e-04
  +7.98339361019268748017e-04
  +6.52234172866328798697e-04
  +5.32867896819579881136e-04
  +4.35347007675287534043e-04
  +3.55673551030222896349e-04
  +2.90573168263746927677e-04
  +2.37381439192651833578e-04
</dep>
