<Qucs Dataset 0.0.19>
<indep time 100>
  +0.00000000000000000000e+00
  +2.02020202020202018333e-06
  +4.04040404040404036665e-06
  +6.06060606060606012647e-06
  +8.08080808080808073331e-06
  +1.01010101010101013402e-05
  +1.21212121212121202529e-05
  +1.41414141414141408598e-05
  +1.61616161616161614666e-05
  +1.81818181818181820735e-05
  +2.02020202020202026803e-05
  +2.22222222222222232871e-05
  +2.42424242424242405059e-05
  +2.62626262626262611127e-05
  +2.82828282828282817195e-05
  +3.03030303030303023264e-05
  +3.23232323232323229332e-05
  +3.43434343434343401519e-05
  +3.63636363636363641469e-05
  +3.83838383838383813656e-05
  +4.04040404040404053606e-05
  +4.24242424242424225793e-05
  +4.44444444444444465743e-05
  +4.64646464646464637930e-05
  +4.84848484848484810117e-05
  +5.05050505050505050067e-05
  +5.25252525252525222254e-05
  +5.45454545454545462204e-05
  +5.65656565656565634391e-05
  +5.85858585858585874341e-05
  +6.06060606060606046528e-05
  +6.26262626262626218715e-05
  +6.46464646464646458665e-05
  +6.66666666666666698614e-05
  +6.86868686868686803039e-05
  +7.07070707070707042989e-05
  +7.27272727272727282938e-05
  +7.47474747474747522888e-05
  +7.67676767676767627313e-05
  +7.87878787878787867262e-05
  +8.08080808080808107212e-05
  +8.28282828282828211637e-05
  +8.48484848484848451586e-05
  +8.68686868686868691536e-05
  +8.88888888888888931486e-05
  +9.09090909090909035910e-05
  +9.29292929292929275860e-05
  +9.49494949494949515810e-05
  +9.69696969696969620234e-05
  +9.89898989898989860184e-05
  +1.01010101010101010013e-04
  +1.03030303030303034008e-04
  +1.05050505050505044451e-04
  +1.07070707070707068446e-04
  +1.09090909090909092441e-04
  +1.11111111111111116436e-04
  +1.13131313131313126878e-04
  +1.15151515151515150873e-04
  +1.17171717171717174868e-04
  +1.19191919191919185311e-04
  +1.21212121212121209306e-04
  +1.23232323232323233301e-04
  +1.25252525252525243743e-04
  +1.27272727272727281290e-04
  +1.29292929292929291733e-04
  +1.31313131313131302175e-04
  +1.33333333333333339723e-04
  +1.35353535353535350165e-04
  +1.37373737373737360608e-04
  +1.39393939393939398155e-04
  +1.41414141414141408598e-04
  +1.43434343434343446145e-04
  +1.45454545454545456588e-04
  +1.47474747474747467030e-04
  +1.49494949494949504578e-04
  +1.51515151515151515020e-04
  +1.53535353535353525463e-04
  +1.55555555555555563010e-04
  +1.57575757575757573452e-04
  +1.59595959595959583895e-04
  +1.61616161616161621442e-04
  +1.63636363636363631885e-04
  +1.65656565656565642327e-04
  +1.67676767676767679875e-04
  +1.69696969696969690317e-04
  +1.71717171717171727865e-04
  +1.73737373737373738307e-04
  +1.75757575757575748750e-04
  +1.77777777777777786297e-04
  +1.79797979797979796740e-04
  +1.81818181818181807182e-04
  +1.83838383838383844730e-04
  +1.85858585858585855172e-04
  +1.87878787878787865614e-04
  +1.89898989898989903162e-04
  +1.91919191919191913604e-04
  +1.93939393939393924047e-04
  +1.95959595959595961594e-04
  +1.97979797979797972037e-04
  +2.00000000000000009584e-04
</indep>
<dep Pr1.Vt time>
  +0.00000000000000000000e+00
  +5.00000000000000000000e+00
  +5.00000000000000000000e+00
  +5.00000000000000000000e+00
  +5.00000000000000000000e+00
  +5.00000000000000000000e+00
  +5.00000000000000000000e+00
  +5.00000000000000000000e+00
  +5.00000000000000000000e+00
  +5.00000000000000000000e+00
  +5.00000000000000000000e+00
  +5.00000000000000000000e+00
  +5.00000000000000000000e+00
  +5.00000000000000000000e+00
  +5.00000000000000000000e+00
  +5.00000000000000000000e+00
  +5.00000000000000000000e+00
  +5.00000000000000000000e+00
  +5.00000000000000000000e+00
  +5.00000000000000000000e+00
  +5.00000000000000000000e+00
  +5.00000000000000000000e+00
  +5.00000000000000000000e+00
  +5.00000000000000000000e+00
  +5.00000000000000000000e+00
  +5.00000000000000000000e+00
  +5.00000000000000000000e+00
  +5.00000000000000000000e+00
  +5.00000000000000000000e+00
  +5.00000000000000000000e+00
  +5.00000000000000000000e+00
  +5.00000000000000000000e+00
  +5.00000000000000000000e+00
  +5.00000000000000000000e+00
  +5.00000000000000000000e+00
  +5.00000000000000000000e+00
  +5.00000000000000000000e+00
  +5.00000000000000000000e+00
  +5.00000000000000000000e+00
  +5.00000000000000000000e+00
  +5.00000000000000000000e+00
  +5.00000000000000000000e+00
  +5.00000000000000000000e+00
  +5.00000000000000000000e+00
  +5.00000000000000000000e+00
  +5.00000000000000000000e+00
  +5.00000000000000000000e+00
  +5.00000000000000000000e+00
  +5.00000000000000000000e+00
  +5.00000000000000000000e+00
  +0.00000000000000000000e+00
  +0.00000000000000000000e+00
  +0.00000000000000000000e+00
  +0.00000000000000000000e+00
  +0.00000000000000000000e+00
  +0.00000000000000000000e+00
  +0.00000000000000000000e+00
  +0.00000000000000000000e+00
  +0.00000000000000000000e+00
  +0.00000000000000000000e+00
  +0.00000000000000000000e+00
  +0.00000000000000000000e+00
  +0.00000000000000000000e+00
  +0.00000000000000000000e+00
  +0.00000000000000000000e+00
  +0.00000000000000000000e+00
  +0.00000000000000000000e+00
  +0.00000000000000000000e+00
  +0.00000000000000000000e+00
  +0.00000000000000000000e+00
  +0.00000000000000000000e+00
  +0.00000000000000000000e+00
  +0.00000000000000000000e+00
  +0.00000000000000000000e+00
  +0.00000000000000000000e+00
  +0.00000000000000000000e+00
  +0.00000000000000000000e+00
  +0.00000000000000000000e+00
  +0.00000000000000000000e+00
  +0.00000000000000000000e+00
  +0.00000000000000000000e+00
  +0.00000000000000000000e+00
  +0.00000000000000000000e+00
  +0.00000000000000000000e+00
  +0.00000000000000000000e+00
  +0.00000000000000000000e+00
  +0.00000000000000000000e+00
  +0.00000000000000000000e+00
  +0.00000000000000000000e+00
  +0.00000000000000000000e+00
  +0.00000000000000000000e+00
  +0.00000000000000000000e+00
  +0.00000000000000000000e+00
  +0.00000000000000000000e+00
  +0.00000000000000000000e+00
  +0.00000000000000000000e+00
  +0.00000000000000000000e+00
  +0.00000000000000000000e+00
  +0.00000000000000000000e+00
  +1.35525271560688054251e-10
</dep>
<dep Pr2.Vt time>
  +0.00000000000000000000e+00
  +4.08548857035283052852e+00
  +3.33784985853464366556e+00
  +2.72693895241130590534e+00
  +2.22787369167203053166e+00
  +1.82016930687895595042e+00
  +1.48707546486524044838e+00
  +1.21493831911496297238e+00
  +9.92602698470084199300e-01
  +8.10954845615390773617e-01
  +6.62548835138896841102e-01
  +5.41301357673987126873e-01
  +4.42242359022900544119e-01
  +3.61311312712304655292e-01
  +2.95190774991160864715e-01
  +2.41170399525424627996e-01
  +1.97035837617197451266e-01
  +1.60977969858270952841e-01
  +1.31518748533632212627e-01
  +1.07450610981627114882e-01
  +8.77869804043376333880e-02
  +7.17218251074385193533e-02
  +5.85966184626593999951e-02
  +4.78733452490258670764e-02
  +3.91124478760289662205e-02
  +3.19548084826219991328e-02
  +2.61070283403768144126e-02
  +2.13294011489999491005e-02
  +1.74260872376397202288e-02
  +1.42370859028106977462e-02
  +1.16316768210715792975e-02
  +9.50306169348635876304e-03
  +7.76398647756426640854e-03
  +6.34316475763974096935e-03
  +5.18235564407643067852e-03
  +4.23397642152334441334e-03
  +3.45903789751744739078e-03
  +2.82599178539300055490e-03
  +2.30881225933732281419e-03
  +1.88628080110309070960e-03
  +1.54107604298303613177e-03
  +1.25904656871256293016e-03
  +1.02863078652415396164e-03
  +8.40382970159758713180e-04
  +6.86586038244563212629e-04
  +5.60935198176792937375e-04
  +4.58265936122970174438e-04
  +3.74376712198198902115e-04
  +3.05874148092577513580e-04
  +2.49889149267268351196e-04
  -4.75209031470748399784e+00
  -3.88255285795948301697e+00
  -3.17200526303339280787e+00
  -2.59153104818456281322e+00
  -2.11721069253865756821e+00
  -1.72976586866658177399e+00
  -1.41317764271635426532e+00
  -1.15455001958318148603e+00
  -9.43258470823732597665e-01
  -7.70634903372954704892e-01
  -6.29602778735735224558e-01
  -5.14380619482424417122e-01
  -4.20245003096116787056e-01
  -3.43336929771882404250e-01
  -2.80503626400577743549e-01
  -2.29169301642420109033e-01
  -1.87229553817869182053e-01
  -1.52965102968004418305e-01
  -1.24971310612497180093e-01
  -1.02100597934889625318e-01
  -8.34154018836028576800e-02
  -6.81497406689058615736e-02
  -5.56778130700595896840e-02
  -4.54883443111753424382e-02
  -3.71636268394443525231e-02
  -3.03623968024301638113e-02
  -2.48058442619429921072e-02
  -2.02661836465597433588e-02
  -1.65573158993910507508e-02
  -1.35271995247494281056e-02
  -1.10516177920547218477e-02
  -9.02908658944492382992e-03
  -7.37669417940820838775e-03
  -6.02670231118694089967e-03
  -4.92376935579833755613e-03
  -4.02268162874034988785e-03
  -3.28649989812153028867e-03
  -2.68504509608309639354e-03
  -2.19366115669761274631e-03
  -1.79220426406387443180e-03
  -1.46421707578765162433e-03
  -1.19625406992766988509e-03
  -9.77330358648305060412e-04
  -7.98471373220388329871e-04
  -6.52344960136327120352e-04
  -5.32960806470652486214e-04
  -4.35411893950304591892e-04
  -3.55706284188497129112e-04
  -2.90619073987177377501e-04
  -2.37431798744104817370e-04
</dep>
<dep ArduinoPin9.It time>
  +0.00000000000000000000e+00
  -9.14511429647169092443e-04
  -1.66215014146535639862e-03
  -2.27306104758869410160e-03
  -2.77212630832796924976e-03
  -3.17983069312104387610e-03
  -3.51292453513475958979e-03
  -3.78506168088503687497e-03
  -4.00739730152991583539e-03
  -4.18904515438460901128e-03
  -4.33745116486110304788e-03
  -4.45869864232601321313e-03
  -4.55775764097709947670e-03
  -4.63868868728769569165e-03
  -4.70480922500883871895e-03
  -4.75882960047457545527e-03
  -4.80296416238280236138e-03
  -4.83902203014172863776e-03
  -4.86848125146636771798e-03
  -4.89254938901837257981e-03
  -4.91221301959566224171e-03
  -4.92827817489256171657e-03
  -4.94140338153734037796e-03
  -4.95212665475097419537e-03
  -4.96088755212397130440e-03
  -4.96804519151737827148e-03
  -4.97389297165962314395e-03
  -4.97867059885100018274e-03
  -4.98257391276236017569e-03
  -4.98576291409718892061e-03
  -4.98836832317892803212e-03
  -4.99049693830651373144e-03
  -4.99223601352243549767e-03
  -4.99365683524236048108e-03
  -4.99481764435592400647e-03
  -4.99576602357847641966e-03
  -4.99654096210248258730e-03
  -4.99717400821460700638e-03
  -4.99769118774066271188e-03
  -4.99811371919889682602e-03
  -4.99845892395701669325e-03
  -4.99874095343128769381e-03
  -4.99897136921347625543e-03
  -4.99915961702983996373e-03
  -4.99931341396175552005e-03
  -4.99943906480182324870e-03
  -4.99954173406387709921e-03
  -4.99962562328780217580e-03
  -4.99969412585190772780e-03
  -4.99975011085073296063e-03
  -4.75209031470748364395e-03
  -3.88255285795948302391e-03
  -3.17200526303339268644e-03
  -2.59153104818456289302e-03
  -2.11721069253865750923e-03
  -1.72976586866658166991e-03
  -1.41317764271635436593e-03
  -1.15455001958318149470e-03
  -9.43258470823732635829e-04
  -7.70634903372954750862e-04
  -6.29602778735735232364e-04
  -5.14380619482424387631e-04
  -4.20245003096116759300e-04
  -3.43336929771882390372e-04
  -2.80503626400577764366e-04
  -2.29169301642420122044e-04
  -1.87229553817869188125e-04
  -1.52965102968004426544e-04
  -1.24971310612497182695e-04
  -1.02100597934889631823e-04
  -8.34154018836028531263e-05
  -6.81497406689058607063e-05
  -5.56778130700595922861e-05
  -4.54883443111753441187e-05
  -3.71636268394443542037e-05
  -3.03623968024301623748e-05
  -2.48058442619429934083e-05
  -2.02661836465597433045e-05
  -1.65573158993910514284e-05
  -1.35271995247494287290e-05
  -1.10516177920547212379e-05
  -9.02908658944492357242e-06
  -7.37669417940820824545e-06
  -6.02670231118694086579e-06
  -4.92376935579833796271e-06
  -4.02268162874035030798e-06
  -3.28649989812153022430e-06
  -2.68504509608309628512e-06
  -2.19366115669761292250e-06
  -1.79220426406387451989e-06
  -1.46421707578765159214e-06
  -1.19625406992766987323e-06
  -9.77330358648304994344e-07
  -7.98471373220388318012e-07
  -6.52344960136327116964e-07
  -5.32960806470652521789e-07
  -4.35411893950304571139e-07
  -3.55706284188497143936e-07
  -2.90619073987177370725e-07
  -2.37431934269376386105e-07
</dep>
<dep _net1.Vt time>
  +0.00000000000000000000e+00
  +5.00000000000000000000e+00
  +5.00000000000000000000e+00
  +5.00000000000000000000e+00
  +5.00000000000000000000e+00
  +5.00000000000000000000e+00
  +5.00000000000000000000e+00
  +5.00000000000000000000e+00
  +5.00000000000000000000e+00
  +5.00000000000000000000e+00
  +5.00000000000000000000e+00
  +5.00000000000000000000e+00
  +5.00000000000000000000e+00
  +5.00000000000000000000e+00
  +5.00000000000000000000e+00
  +5.00000000000000000000e+00
  +5.00000000000000000000e+00
  +5.00000000000000000000e+00
  +5.00000000000000000000e+00
  +5.00000000000000000000e+00
  +5.00000000000000000000e+00
  +5.00000000000000000000e+00
  +5.00000000000000000000e+00
  +5.00000000000000000000e+00
  +5.00000000000000000000e+00
  +5.00000000000000000000e+00
  +5.00000000000000000000e+00
  +5.00000000000000000000e+00
  +5.00000000000000000000e+00
  +5.00000000000000000000e+00
  +5.00000000000000000000e+00
  +5.00000000000000000000e+00
  +5.00000000000000000000e+00
  +5.00000000000000000000e+00
  +5.00000000000000000000e+00
  +5.00000000000000000000e+00
  +5.00000000000000000000e+00
  +5.00000000000000000000e+00
  +5.00000000000000000000e+00
  +5.00000000000000000000e+00
  +5.00000000000000000000e+00
  +5.00000000000000000000e+00
  +5.00000000000000000000e+00
  +5.00000000000000000000e+00
  +5.00000000000000000000e+00
  +5.00000000000000000000e+00
  +5.00000000000000000000e+00
  +5.00000000000000000000e+00
  +5.00000000000000000000e+00
  +5.00000000000000000000e+00
  +0.00000000000000000000e+00
  +0.00000000000000000000e+00
  +0.00000000000000000000e+00
  +0.00000000000000000000e+00
  +0.00000000000000000000e+00
  +0.00000000000000000000e+00
  +0.00000000000000000000e+00
  +0.00000000000000000000e+00
  +0.00000000000000000000e+00
  +0.00000000000000000000e+00
  +0.00000000000000000000e+00
  +0.00000000000000000000e+00
  +0.00000000000000000000e+00
  +0.00000000000000000000e+00
  +0.00000000000000000000e+00
  +0.00000000000000000000e+00
  +0.00000000000000000000e+00
  +0.00000000000000000000e+00
  +0.00000000000000000000e+00
  +0.00000000000000000000e+00
  +0.00000000000000000000e+00
  +0.00000000000000000000e+00
  +0.00000000000000000000e+00
  +0.00000000000000000000e+00
  +0.00000000000000000000e+00
  +0.00000000000000000000e+00
  +0.00000000000000000000e+00
  +0.00000000000000000000e+00
  +0.00000000000000000000e+00
  +0.00000000000000000000e+00
  +0.00000000000000000000e+00
  +0.00000000000000000000e+00
  +0.00000000000000000000e+00
  +0.00000000000000000000e+00
  +0.00000000000000000000e+00
  +0.00000000000000000000e+00
  +0.00000000000000000000e+00
  +0.00000000000000000000e+00
  +0.00000000000000000000e+00
  +0.00000000000000000000e+00
  +0.00000000000000000000e+00
  +0.00000000000000000000e+00
  +0.00000000000000000000e+00
  +0.00000000000000000000e+00
  +0.00000000000000000000e+00
  +0.00000000000000000000e+00
  +0.00000000000000000000e+00
  +0.00000000000000000000e+00
  +0.00000000000000000000e+00
  +1.35525271560688054251e-10
</dep>
<dep _net0.Vt time>
  +0.00000000000000000000e+00
  +4.08548857035283052852e+00
  +3.33784985853464366556e+00
  +2.72693895241130590534e+00
  +2.22787369167203053166e+00
  +1.82016930687895595042e+00
  +1.48707546486524044838e+00
  +1.21493831911496297238e+00
  +9.92602698470084199300e-01
  +8.10954845615390773617e-01
  +6.62548835138896841102e-01
  +5.41301357673987126873e-01
  +4.42242359022900544119e-01
  +3.61311312712304655292e-01
  +2.95190774991160864715e-01
  +2.41170399525424627996e-01
  +1.97035837617197451266e-01
  +1.60977969858270952841e-01
  +1.31518748533632212627e-01
  +1.07450610981627114882e-01
  +8.77869804043376333880e-02
  +7.17218251074385193533e-02
  +5.85966184626593999951e-02
  +4.78733452490258670764e-02
  +3.91124478760289662205e-02
  +3.19548084826219991328e-02
  +2.61070283403768144126e-02
  +2.13294011489999491005e-02
  +1.74260872376397202288e-02
  +1.42370859028106977462e-02
  +1.16316768210715792975e-02
  +9.50306169348635876304e-03
  +7.76398647756426640854e-03
  +6.34316475763974096935e-03
  +5.18235564407643067852e-03
  +4.23397642152334441334e-03
  +3.45903789751744739078e-03
  +2.82599178539300055490e-03
  +2.30881225933732281419e-03
  +1.88628080110309070960e-03
  +1.54107604298303613177e-03
  +1.25904656871256293016e-03
  +1.02863078652415396164e-03
  +8.40382970159758713180e-04
  +6.86586038244563212629e-04
  +5.60935198176792937375e-04
  +4.58265936122970174438e-04
  +3.74376712198198902115e-04
  +3.05874148092577513580e-04
  +2.49889149267268351196e-04
  -4.75209031470748399784e+00
  -3.88255285795948301697e+00
  -3.17200526303339280787e+00
  -2.59153104818456281322e+00
  -2.11721069253865756821e+00
  -1.72976586866658177399e+00
  -1.41317764271635426532e+00
  -1.15455001958318148603e+00
  -9.43258470823732597665e-01
  -7.70634903372954704892e-01
  -6.29602778735735224558e-01
  -5.14380619482424417122e-01
  -4.20245003096116787056e-01
  -3.43336929771882404250e-01
  -2.80503626400577743549e-01
  -2.29169301642420109033e-01
  -1.87229553817869182053e-01
  -1.52965102968004418305e-01
  -1.24971310612497180093e-01
  -1.02100597934889625318e-01
  -8.34154018836028576800e-02
  -6.81497406689058615736e-02
  -5.56778130700595896840e-02
  -4.54883443111753424382e-02
  -3.71636268394443525231e-02
  -3.03623968024301638113e-02
  -2.48058442619429921072e-02
  -2.02661836465597433588e-02
  -1.65573158993910507508e-02
  -1.35271995247494281056e-02
  -1.10516177920547218477e-02
  -9.02908658944492382992e-03
  -7.37669417940820838775e-03
  -6.02670231118694089967e-03
  -4.92376935579833755613e-03
  -4.02268162874034988785e-03
  -3.28649989812153028867e-03
  -2.68504509608309639354e-03
  -2.19366115669761274631e-03
  -1.79220426406387443180e-03
  -1.46421707578765162433e-03
  -1.19625406992766988509e-03
  -9.77330358648305060412e-04
  -7.98471373220388329871e-04
  -6.52344960136327120352e-04
  -5.32960806470652486214e-04
  -4.35411893950304591892e-04
  -3.55706284188497129112e-04
  -2.90619073987177377501e-04
  -2.37431798744104817370e-04
</dep>
