<Qucs Dataset 0.0.19>
<indep time 100>
  +0.00000000000000000000e+00
  +1.01010101010101013402e-05
  +2.02020202020202026803e-05
  +3.03030303030303057145e-05
  +4.04040404040404053606e-05
  +5.05050505050505050067e-05
  +6.06060606060606114290e-05
  +7.07070707070707042989e-05
  +8.08080808080808107212e-05
  +9.09090909090909171436e-05
  +1.01010101010101010013e-04
  +1.11111111111111116436e-04
  +1.21212121212121222858e-04
  +1.31313131313131329280e-04
  +1.41414141414141408598e-04
  +1.51515151515151515020e-04
  +1.61616161616161621442e-04
  +1.71717171717171727865e-04
  +1.81818181818181834287e-04
  +1.91919191919191913604e-04
  +2.02020202020202020027e-04
  +2.12121212121212126449e-04
  +2.22222222222222232871e-04
  +2.32323232323232339294e-04
  +2.42424242424242445716e-04
  +2.52525252525252525033e-04
  +2.62626262626262658561e-04
  +2.72727272727272737878e-04
  +2.82828282828282817195e-04
  +2.92929292929292950723e-04
  +3.03030303030303030040e-04
  +3.13131313131313163568e-04
  +3.23232323232323242885e-04
  +3.33333333333333322202e-04
  +3.43434343434343455730e-04
  +3.53535353535353535047e-04
  +3.63636363636363668574e-04
  +3.73737373737373747892e-04
  +3.83838383838383827209e-04
  +3.93939393939393960736e-04
  +4.04040404040404040054e-04
  +4.14141414141414173581e-04
  +4.24242424242424252898e-04
  +4.34343434343434332216e-04
  +4.44444444444444465743e-04
  +4.54545454545454545060e-04
  +4.64646464646464678588e-04
  +4.74747474747474757905e-04
  +4.84848484848484891432e-04
  +4.94949494949494970750e-04
  +5.05050505050505050067e-04
  +5.15151515151515129384e-04
  +5.25252525252525317122e-04
  +5.35353535353535396439e-04
  +5.45454545454545475756e-04
  +5.55555555555555555074e-04
  +5.65656565656565634391e-04
  +5.75757575757575822128e-04
  +5.85858585858585901446e-04
  +5.95959595959595980763e-04
  +6.06060606060606060080e-04
  +6.16161616161616139398e-04
  +6.26262626262626327135e-04
  +6.36363636363636406452e-04
  +6.46464646464646485770e-04
  +6.56565656565656565087e-04
  +6.66666666666666644404e-04
  +6.76767676767676832142e-04
  +6.86868686868686911459e-04
  +6.96969696969696990776e-04
  +7.07070707070707070094e-04
  +7.17171717171717149411e-04
  +7.27272727272727337149e-04
  +7.37373737373737416466e-04
  +7.47474747474747495783e-04
  +7.57575757575757575100e-04
  +7.67676767676767654418e-04
  +7.77777777777777842155e-04
  +7.87878787878787921473e-04
  +7.97979797979798000790e-04
  +8.08080808080808080107e-04
  +8.18181818181818159424e-04
  +8.28282828282828347162e-04
  +8.38383838383838426479e-04
  +8.48484848484848505797e-04
  +8.58585858585858585114e-04
  +8.68686868686868664431e-04
  +8.78787878787878852169e-04
  +8.88888888888888931486e-04
  +8.98989898989899010803e-04
  +9.09090909090909090121e-04
  +9.19191919191919169438e-04
  +9.29292929292929357175e-04
  +9.39393939393939436493e-04
  +9.49494949494949515810e-04
  +9.59595959595959595127e-04
  +9.69696969696969782865e-04
  +9.79797979797979862182e-04
  +9.89898989898989941499e-04
  +1.00000000000000002082e-03
</indep>
<dep Pr1.Vt time>
  +0.00000000000000000000e+00
  +6.24066891396974132711e-01
  +1.18581585810928080704e+00
  +1.62915190410067145521e+00
  +1.90980448288814774749e+00
  +1.99974825534775013658e+00
  +1.89000163742933691147e+00
  +1.59152368106166464123e+00
  +1.13411972772554170419e+00
  +5.63465113682859231048e-01
  -6.34558669961348131849e-02
  -6.84040286651337314794e-01
  -1.23631797244121055535e+00
  -1.66513970926954346652e+00
  -1.92768431711988386112e+00
  -1.99773467836601592573e+00
  -1.86829572053021353284e+00
  -1.55229292858351319850e+00
  -1.08128163491119488882e+00
  -5.02295974362158670345e-01
  +1.26847839313128041283e-01
  +7.43324911320655257185e-01
  +1.28557521937307850379e+00
  +1.69945085989902922030e+00
  +1.94362313664708352690e+00
  +1.99370955190388476908e+00
  +1.84470858820916183696e+00
  +1.51149914870851631576e+00
  +1.02735478314681438761e+00
  +4.40621065573078618538e-01
  -1.90112086608365676854e-01
  -8.01861070813228771215e-01
  -1.33353800103258257614e+00
  -1.73205080756887741522e+00
  -1.95760489242955770806e+00
  -1.98767692892250846803e+00
  -1.81926399070903666022e+00
  -1.46918341731506529868e+00
  -9.72393472200937969419e-01
  -3.78502488720819985080e-01
  +2.53184907147496585100e-01
  +8.59589824178345729422e-01
  +1.38015802296422429585e+00
  +1.76290672689516325633e+00
  +1.96961550602441604063e+00
  +1.97964288376186536844e+00
  +1.79198754858267106371e+00
  +1.42538834275772630100e+00
  +9.16453043454820370783e-01
  +3.16002791946698113890e-01
  -3.16002791946699168601e-01
  -9.16453043454818150337e-01
  -1.42538834275772963167e+00
  -1.79198754858267150780e+00
  -1.97964288376186559049e+00
  -1.96961550602441581859e+00
  -1.76290672689516592087e+00
  -1.38015802296422096518e+00
  -8.59589824178338290928e-01
  -2.53184907147499027591e-01
  +3.78502488720821095303e-01
  +9.72393472200932751370e-01
  +1.46918341731506862935e+00
  +1.81926399070903843658e+00
  +1.98767692892250802394e+00
  +1.95760489242955748601e+00
  +1.73205080756887697113e+00
  +1.33353800103258191001e+00
  +8.01861070813224441345e-01
  +1.90112086608368091589e-01
  -4.40621065573079673250e-01
  -1.02735478314681238921e+00
  -1.51149914870851720394e+00
  -1.84470858820916361331e+00
  -1.99370955190388499112e+00
  -1.94362313664708397098e+00
  -1.69945085989902944235e+00
  -1.28557521937307339677e+00
  -7.43324911320654257985e-01
  -1.26847839313126958816e-01
  +5.02295974362154673543e-01
  +1.08128163491119289041e+00
  +1.55229292858351719531e+00
  +1.86829572053021331079e+00
  +1.99773467836601592573e+00
  +1.92768431711988363908e+00
  +1.66513970926954479879e+00
  +1.23631797244120678059e+00
  +6.84040286651338758084e-01
  +6.34558669961354931965e-02
  -5.63465113682860341271e-01
  -1.13411972772553748534e+00
  -1.59152368106166641759e+00
  -1.89000163742933846578e+00
  -1.99974825534775013658e+00
  -1.90980448288814774749e+00
  -1.62915190410067078908e+00
  -1.18581585810927903069e+00
  -6.24066891396970913064e-01
  -2.44929359829470651296e-15
</dep>
<dep Pr2.Vt time>
  +0.00000000000000000000e+00
  +1.57466158639767758037e-04
  +2.37970976604481049277e-01
  +6.96463648470194041096e-01
  +1.00573827943516125316e+00
  +1.15390314716073860701e+00
  +1.18536427335622995827e+00
  +1.18547489489220470027e+00
  +1.18428155262941481318e+00
  +1.18308590224693466197e+00
  +1.18189145841853959773e+00
  +1.18069822055271611561e+00
  +1.17950618744071689115e+00
  +1.17831535787224495060e+00
  +1.17712573063663072936e+00
  +1.17593730452264466635e+00
  +1.17475007831837796601e+00
  +1.17356405081121928369e+00
  +1.17237922078796064085e+00
  +1.17119558703509585307e+00
  +1.17001314833970893048e+00
  +1.16883190349692411836e+00
  +1.16765186535120757405e+00
  +1.16651266771897099694e+00
  +1.17117606282921227212e+00
  +1.20224387919174824368e+00
  +1.21244338087056613418e+00
  +1.21152787842160991616e+00
  +1.21030518583837021218e+00
  +1.20908326168700219760e+00
  +1.20786257117180073628e+00
  +1.20664311311894478784e+00
  +1.20542488629223920604e+00
  +1.20420788945456114227e+00
  +1.20299212136830790953e+00
  +1.20177758079525509594e+00
  +1.20056426649646730276e+00
  +1.19935217723230325149e+00
  +1.19814131176253768629e+00
  +1.19693166884667778760e+00
  +1.19572324724499057247e+00
  +1.19451604573187064595e+00
  +1.19331011531125485980e+00
  +1.19219099417002660779e+00
  +1.19780385479366313639e+00
  +1.21988158026621862362e+00
  +1.22408972329840293192e+00
  +1.22293944279719624113e+00
  +1.22170483614220315438e+00
  +1.22047140297037048917e+00
  +1.21923921510291122239e+00
  +1.21800827130695132894e+00
  +1.21677857033409586585e+00
  +1.21555011093525400234e+00
  +1.21432289186080799581e+00
  +1.21309691186047574618e+00
  +1.21187216968325395250e+00
  +1.21064866407744253785e+00
  +1.20942639379078387130e+00
  +1.20820535757082514472e+00
  +1.20698555416626618353e+00
  +1.20576698236053059254e+00
  +1.20454987135510016572e+00
  +1.20354823958382906035e+00
  +1.21143941901378293657e+00
  +1.22867061513239406167e+00
  +1.23007205675243436183e+00
  +1.22885352447112849994e+00
  +1.22761288545302815756e+00
  +1.22637348756905439906e+00
  +1.22513534101327659087e+00
  +1.22389844453799856439e+00
  +1.22266279691723744882e+00
  +1.22142839686299353730e+00
  +1.22019524312210791983e+00
  +1.21896333446407489909e+00
  +1.21773266961075288251e+00
  +1.21650324730761849601e+00
  +1.21527506629601744770e+00
  +1.21404812531721217894e+00
  +1.21282242311469867779e+00
  +1.21159795857010688103e+00
  +1.21037566149298503326e+00
  +1.20966098970536339863e+00
  +1.22034666640112043901e+00
  +1.23340376512709259949e+00
  +1.23334475508834606750e+00
  +1.23210513065651072750e+00
  +1.23086119895187118267e+00
  +1.22961852161001572448e+00
  +1.22837709892190338756e+00
  +1.22713692963174736406e+00
  +1.22589801248094776298e+00
  +1.22466034621036179431e+00
  +1.22342392956024159645e+00
  +1.22218876127014008937e+00
  +1.22095484007887833400e+00
  +1.21972216472461481018e+00
  +1.21849073394503903955e+00
  +1.21726054647789827534e+00
</dep>
<dep V1.It time>
  +0.00000000000000000000e+00
  -1.20341095756764651301e-03
  -5.12082456385215212258e-01
  -3.85775954923380293149e-01
  -2.25969968545303961927e-01
  -7.61295037119831125016e-02
  -5.43963933488240958258e-03
  -2.05173337391399007723e-05
  +6.80382802026835758982e-09
  +1.08076090839902842278e-08
  +1.07533001588980175449e-08
  +1.06859050389236951229e-08
  +1.06117685676834315697e-08
  +1.05324431472052456519e-08
  +1.04495964336661480203e-08
  +1.03650714713170971459e-08
  +1.02807836481560564892e-08
  +1.01986111557691068241e-08
  +1.01202551427602456837e-08
  +1.00469612110386903090e-08
  +9.97836220138384477273e-09
  +9.88964106622467964126e-09
  -8.43501597839803758097e-08
  -2.19843721386177304300e-04
  -1.93145926379627574931e-02
  -2.75570348789726526917e-02
  -1.40677915185844631951e-03
  -2.81703305970865407366e-06
  +1.05105791157540688048e-08
  +1.07991648002280330579e-08
  +1.07413790119774297604e-08
  +1.06733042059295218382e-08
  +1.05985407148553121168e-08
  +1.05187550653563485976e-08
  +1.04357324611443097734e-08
  +1.03513867661707038907e-08
  +1.02676741875488887114e-08
  +1.01864952305297938577e-08
  +1.01095599949988225734e-08
  +1.00380905492303268362e-08
  +9.97129685850713065225e-09
  +9.85696559002882489872e-09
  -3.31667183707474743412e-07
  -4.45359064399290793812e-04
  -1.90866068677085221061e-02
  -1.52381818518869671664e-02
  -4.22512668056426038410e-04
  -4.46209438556309848350e-07
  +1.07711151842886816231e-08
  +1.07875484996893245842e-08
  +1.07273645775150714710e-08
  +1.06581352442547305137e-08
  +1.05824497150339376326e-08
  +1.05020289515657954632e-08
  +1.04187191054164682992e-08
  +1.03344693375797226149e-08
  +1.02512501530026190786e-08
  +1.01709576595524962378e-08
  +1.00952723325814014216e-08
  +1.00253046855151988899e-08
  +9.95928228198892206004e-09
  +9.73634415071365998346e-09
  -1.45128355627682396412e-06
  -1.03256349837822086757e-03
  -2.07322832871357776163e-02
  -8.56552247602521132919e-03
  -1.23265417211540495579e-04
  -6.26675775165601476414e-08
  +1.08055578456534105167e-08
  +1.07748423249733998395e-08
  +1.07517019429152569932e-08
  +1.06423479054155848829e-08
  +1.05656972084998064257e-08
  +1.05233982128146048317e-08
  +1.04011720990261753826e-08
  +1.03556494961992897073e-08
  +1.02343155301016737505e-08
  +1.01935168354494918435e-08
  +1.00804190140120023202e-08
  +1.00504163888551551147e-08
  +9.98409947181204935574e-09
  +9.02212022244389644687e-09
  -6.18299804849617288573e-06
  -2.30266762075001518717e-03
  -2.11828369437963015542e-02
  -4.48248078725992094018e-03
  -3.32012834291182381760e-05
  -3.37595786032042533990e-10
  +1.08082801623815858662e-08
  +1.08026465640467856181e-08
  +1.06984188713387100209e-08
  +1.06668508144625690116e-08
  +1.05490122854961899734e-08
  +1.05075491448280432010e-08
  +1.03835245624772539229e-08
  +1.03397735823295651662e-08
  +1.02174116335379852782e-08
  +1.01791430480041370588e-08
  +1.00656735537809068588e-08
  +1.00385099135989078719e-08
</dep>
<dep _net1.Vt time>
  +0.00000000000000000000e+00
  +1.57466158639767758037e-04
  +2.37970976604481049277e-01
  +6.96463648470194041096e-01
  +1.00573827943516125316e+00
  +1.15390314716073860701e+00
  +1.18536427335622995827e+00
  +1.18547489489220470027e+00
  +1.18428155262941481318e+00
  +1.18308590224693466197e+00
  +1.18189145841853959773e+00
  +1.18069822055271611561e+00
  +1.17950618744071689115e+00
  +1.17831535787224495060e+00
  +1.17712573063663072936e+00
  +1.17593730452264466635e+00
  +1.17475007831837796601e+00
  +1.17356405081121928369e+00
  +1.17237922078796064085e+00
  +1.17119558703509585307e+00
  +1.17001314833970893048e+00
  +1.16883190349692411836e+00
  +1.16765186535120757405e+00
  +1.16651266771897099694e+00
  +1.17117606282921227212e+00
  +1.20224387919174824368e+00
  +1.21244338087056613418e+00
  +1.21152787842160991616e+00
  +1.21030518583837021218e+00
  +1.20908326168700219760e+00
  +1.20786257117180073628e+00
  +1.20664311311894478784e+00
  +1.20542488629223920604e+00
  +1.20420788945456114227e+00
  +1.20299212136830790953e+00
  +1.20177758079525509594e+00
  +1.20056426649646730276e+00
  +1.19935217723230325149e+00
  +1.19814131176253768629e+00
  +1.19693166884667778760e+00
  +1.19572324724499057247e+00
  +1.19451604573187064595e+00
  +1.19331011531125485980e+00
  +1.19219099417002660779e+00
  +1.19780385479366313639e+00
  +1.21988158026621862362e+00
  +1.22408972329840293192e+00
  +1.22293944279719624113e+00
  +1.22170483614220315438e+00
  +1.22047140297037048917e+00
  +1.21923921510291122239e+00
  +1.21800827130695132894e+00
  +1.21677857033409586585e+00
  +1.21555011093525400234e+00
  +1.21432289186080799581e+00
  +1.21309691186047574618e+00
  +1.21187216968325395250e+00
  +1.21064866407744253785e+00
  +1.20942639379078387130e+00
  +1.20820535757082514472e+00
  +1.20698555416626618353e+00
  +1.20576698236053059254e+00
  +1.20454987135510016572e+00
  +1.20354823958382906035e+00
  +1.21143941901378293657e+00
  +1.22867061513239406167e+00
  +1.23007205675243436183e+00
  +1.22885352447112849994e+00
  +1.22761288545302815756e+00
  +1.22637348756905439906e+00
  +1.22513534101327659087e+00
  +1.22389844453799856439e+00
  +1.22266279691723744882e+00
  +1.22142839686299353730e+00
  +1.22019524312210791983e+00
  +1.21896333446407489909e+00
  +1.21773266961075288251e+00
  +1.21650324730761849601e+00
  +1.21527506629601744770e+00
  +1.21404812531721217894e+00
  +1.21282242311469867779e+00
  +1.21159795857010688103e+00
  +1.21037566149298503326e+00
  +1.20966098970536339863e+00
  +1.22034666640112043901e+00
  +1.23340376512709259949e+00
  +1.23334475508834606750e+00
  +1.23210513065651072750e+00
  +1.23086119895187118267e+00
  +1.22961852161001572448e+00
  +1.22837709892190338756e+00
  +1.22713692963174736406e+00
  +1.22589801248094776298e+00
  +1.22466034621036179431e+00
  +1.22342392956024159645e+00
  +1.22218876127014008937e+00
  +1.22095484007887833400e+00
  +1.21972216472461481018e+00
  +1.21849073394503903955e+00
  +1.21726054647789827534e+00
</dep>
<dep _net0.Vt time>
  +0.00000000000000000000e+00
  +6.24066891396974132711e-01
  +1.18581585810928080704e+00
  +1.62915190410067145521e+00
  +1.90980448288814774749e+00
  +1.99974825534775013658e+00
  +1.89000163742933691147e+00
  +1.59152368106166464123e+00
  +1.13411972772554170419e+00
  +5.63465113682859231048e-01
  -6.34558669961348131849e-02
  -6.84040286651337314794e-01
  -1.23631797244121055535e+00
  -1.66513970926954346652e+00
  -1.92768431711988386112e+00
  -1.99773467836601592573e+00
  -1.86829572053021353284e+00
  -1.55229292858351319850e+00
  -1.08128163491119488882e+00
  -5.02295974362158670345e-01
  +1.26847839313128041283e-01
  +7.43324911320655257185e-01
  +1.28557521937307850379e+00
  +1.69945085989902922030e+00
  +1.94362313664708352690e+00
  +1.99370955190388476908e+00
  +1.84470858820916183696e+00
  +1.51149914870851631576e+00
  +1.02735478314681438761e+00
  +4.40621065573078618538e-01
  -1.90112086608365676854e-01
  -8.01861070813228771215e-01
  -1.33353800103258257614e+00
  -1.73205080756887741522e+00
  -1.95760489242955770806e+00
  -1.98767692892250846803e+00
  -1.81926399070903666022e+00
  -1.46918341731506529868e+00
  -9.72393472200937969419e-01
  -3.78502488720819985080e-01
  +2.53184907147496585100e-01
  +8.59589824178345729422e-01
  +1.38015802296422429585e+00
  +1.76290672689516325633e+00
  +1.96961550602441604063e+00
  +1.97964288376186536844e+00
  +1.79198754858267106371e+00
  +1.42538834275772630100e+00
  +9.16453043454820370783e-01
  +3.16002791946698113890e-01
  -3.16002791946699168601e-01
  -9.16453043454818150337e-01
  -1.42538834275772963167e+00
  -1.79198754858267150780e+00
  -1.97964288376186559049e+00
  -1.96961550602441581859e+00
  -1.76290672689516592087e+00
  -1.38015802296422096518e+00
  -8.59589824178338290928e-01
  -2.53184907147499027591e-01
  +3.78502488720821095303e-01
  +9.72393472200932751370e-01
  +1.46918341731506862935e+00
  +1.81926399070903843658e+00
  +1.98767692892250802394e+00
  +1.95760489242955748601e+00
  +1.73205080756887697113e+00
  +1.33353800103258191001e+00
  +8.01861070813224441345e-01
  +1.90112086608368091589e-01
  -4.40621065573079673250e-01
  -1.02735478314681238921e+00
  -1.51149914870851720394e+00
  -1.84470858820916361331e+00
  -1.99370955190388499112e+00
  -1.94362313664708397098e+00
  -1.69945085989902944235e+00
  -1.28557521937307339677e+00
  -7.43324911320654257985e-01
  -1.26847839313126958816e-01
  +5.02295974362154673543e-01
  +1.08128163491119289041e+00
  +1.55229292858351719531e+00
  +1.86829572053021331079e+00
  +1.99773467836601592573e+00
  +1.92768431711988363908e+00
  +1.66513970926954479879e+00
  +1.23631797244120678059e+00
  +6.84040286651338758084e-01
  +6.34558669961354931965e-02
  -5.63465113682860341271e-01
  -1.13411972772553748534e+00
  -1.59152368106166641759e+00
  -1.89000163742933846578e+00
  -1.99974825534775013658e+00
  -1.90980448288814774749e+00
  -1.62915190410067078908e+00
  -1.18581585810927903069e+00
  -6.24066891396970913064e-01
  -2.44929359829470651296e-15
</dep>
