<Qucs Dataset 0.0.19>
<indep acfrequency 201>
  +1.00000000000000000000e+01
  +1.04712854805089961019e+01
  +1.09647819614318500214e+01
  +1.14815362149688287019e+01
  +1.20226443461741290264e+01
  +1.25892541179416728170e+01
  +1.31825673855640719268e+01
  +1.38038426460288476960e+01
  +1.44543977074592753240e+01
  +1.51356124843620811760e+01
  +1.58489319246111364237e+01
  +1.65958690743756065444e+01
  +1.73780082874937562565e+01
  +1.81970085860998374017e+01
  +1.90546071796324731906e+01
  +1.99526231496887973549e+01
  +2.08929613085403964590e+01
  +2.18776162394955235868e+01
  +2.29086765276777306610e+01
  +2.39883291901949036173e+01
  +2.51188643150958021977e+01
  +2.63026799189538209589e+01
  +2.75422870333816618427e+01
  +2.88403150312660585541e+01
  +3.01995172040201644847e+01
  +3.16227766016837961160e+01
  +3.31131121482591197491e+01
  +3.46736850452531726319e+01
  +3.63078054770101346094e+01
  +3.80189396320561172615e+01
  +3.98107170553497269339e+01
  +4.16869383470335463926e+01
  +4.36515832240166048450e+01
  +4.57088189614875091138e+01
  +4.78630092322638418523e+01
  +5.01187233627272377134e+01
  +5.24807460249772717020e+01
  +5.49540873857624561083e+01
  +5.75439937337156948161e+01
  +6.02559586074357795837e+01
  +6.30957344480193356162e+01
  +6.60693448007596089155e+01
  +6.91830970918936714043e+01
  +7.24435960074990248359e+01
  +7.58577575029183748256e+01
  +7.94328234724281685430e+01
  +8.31763771102671114477e+01
  +8.70963589956080852517e+01
  +9.12010839355909865844e+01
  +9.54992586021435840848e+01
  +1.00000000000000014211e+02
  +1.04712854805089961019e+02
  +1.09647819614318535741e+02
  +1.14815362149688283466e+02
  +1.20226443461741325791e+02
  +1.25892541179416753039e+02
  +1.31825673855640701504e+02
  +1.38038426460288519593e+02
  +1.44543977074592760346e+02
  +1.51356124843620875708e+02
  +1.58489319246111364237e+02
  +1.65958690743756136499e+02
  +1.73780082874937562565e+02
  +1.81970085860998409544e+02
  +1.90546071796324781644e+02
  +1.99526231496887987760e+02
  +2.08929613085404014328e+02
  +2.18776162394955264290e+02
  +2.29086765276777384770e+02
  +2.39883291901949064595e+02
  +2.51188643150958085926e+02
  +2.63026799189538223800e+02
  +2.75422870333816774746e+02
  +2.88403150312660670807e+02
  +3.01995172040201623531e+02
  +3.16227766016838018004e+02
  +3.31131121482591140648e+02
  +3.46736850452531825795e+02
  +3.63078054770101402937e+02
  +3.80189396320561399989e+02
  +3.98107170553497326182e+02
  +4.16869383470335492348e+02
  +4.36515832240166105294e+02
  +4.57088189614875091138e+02
  +4.78630092322638574842e+02
  +5.01187233627272348713e+02
  +5.24807460249772816496e+02
  +5.49540873857624660559e+02
  +5.75439937337156948161e+02
  +6.02559586074357639518e+02
  +6.30957344480193683012e+02
  +6.60693448007596202842e+02
  +6.91830970918936600356e+02
  +7.24435960074990134672e+02
  +7.58577575029184345112e+02
  +7.94328234724281969648e+02
  +8.31763771102671285007e+02
  +8.70963589956080681986e+02
  +9.12010839355909752157e+02
  +9.54992586021436522969e+02
  +1.00000000000000045475e+03
  +1.04712854805089978072e+03
  +1.09647819614318495951e+03
  +1.14815362149688348836e+03
  +1.20226443461741359897e+03
  +1.25892541179416775776e+03
  +1.31825673855640729926e+03
  +1.38038426460288496855e+03
  +1.44543977074592839926e+03
  +1.51356124843620909814e+03
  +1.58489319246111381290e+03
  +1.65958690743756073971e+03
  +1.73780082874937534143e+03
  +1.81970085860998460703e+03
  +1.90546071796324804382e+03
  +1.99526231496888021866e+03
  +2.08929613085403980222e+03
  +2.18776162394955417767e+03
  +2.29086765276777441613e+03
  +2.39883291901949132807e+03
  +2.51188643150958068873e+03
  +2.63026799189538178325e+03
  +2.75422870333816808852e+03
  +2.88403150312660727650e+03
  +3.01995172040201669006e+03
  +3.16227766016837949792e+03
  +3.31131121482591379390e+03
  +3.46736850452531825795e+03
  +3.63078054770101516624e+03
  +3.80189396320561263565e+03
  +3.98107170553497280707e+03
  +4.16869383470335742459e+03
  +4.36515832240166218980e+03
  +4.57088189614875227562e+03
  +4.78630092322638392943e+03
  +5.01187233627272689773e+03
  +5.24807460249772884708e+03
  +5.49540873857624774246e+03
  +5.75439937337157061847e+03
  +6.02559586074357775942e+03
  +6.30957344480193751224e+03
  +6.60693448007596452953e+03
  +6.91830970918936691305e+03
  +7.24435960074990271096e+03
  +7.58577575029184481537e+03
  +7.94328234724282083334e+03
  +8.31763771102671307744e+03
  +8.70963589956080977572e+03
  +9.12010839355909774895e+03
  +9.54992586021436727606e+03
  +1.00000000000000072760e+04
  +1.04712854805089991714e+04
  +1.09647819614318541426e+04
  +1.14815362149688280624e+04
  +1.20226443461741382635e+04
  +1.25892541179416803061e+04
  +1.31825673855640743568e+04
  +1.38038426460288519593e+04
  +1.44543977074592876306e+04
  +1.51356124843620928004e+04
  +1.58489319246111426764e+04
  +1.65958690743756123993e+04
  +1.73780082874937579618e+04
  +1.81970085860998515273e+04
  +1.90546071796324831666e+04
  +1.99526231496888030961e+04
  +2.08929613085403980222e+04
  +2.18776162394955463242e+04
  +2.29086765276777477993e+04
  +2.39883291901949196472e+04
  +2.51188643150958123442e+04
  +2.63026799189538214705e+04
  +2.75422870333816899802e+04
  +2.88403150312660764030e+04
  +3.01995172040201759955e+04
  +3.16227766016838031646e+04
  +3.31131121482591115637e+04
  +3.46736850452531580231e+04
  +3.63078054770101225586e+04
  +3.80189396320561718312e+04
  +3.98107170553497708170e+04
  +4.16869383470335815218e+04
  +4.36515832240166346310e+04
  +4.57088189614875300322e+04
  +4.78630092322638520272e+04
  +5.01187233627272435115e+04
  +5.24807460249772630050e+04
  +5.49540873857624392258e+04
  +5.75439937337157680304e+04
  +6.02559586074358521728e+04
  +6.30957344480193860363e+04
  +6.60693448007596598472e+04
  +6.91830970918936945964e+04
  +7.24435960074990289286e+04
  +7.58577575029183935840e+04
  +7.94328234724281501258e+04
  +8.31763771102670871187e+04
  +8.70963589956081850687e+04
  +9.12010839355910866288e+04
  +9.54992586021436873125e+04
  +1.00000000000000087311e+05
</indep>
<dep H acfrequency>
  +3.94787137296000739661e-07+j6.28320763176832305756e-04
  +4.32875801424468972666e-07+j6.57932833990681380579e-04
  +4.74639254523652722739e-07+j6.88940512120771435950e-04
  +5.20432046420683696903e-07+j7.21409575464014010335e-04
  +5.70642935862726759481e-07+j7.55408902667533224164e-04
  +6.25698191456215333730e-07+j7.91010619371186910961e-04
  +6.86065211180805105675e-07+j8.28290251358381780789e-04
  +7.52256491235020637461e-07+j8.67326884943152255289e-04
  +8.24833977942275590416e-07+j9.08203334937273017158e-04
  +9.04413839705248723875e-07+j9.51006320557784535184e-04
  +9.91671699571413410034e-07+j9.95826649652766481002e-04
  +1.08734837289347245792e-06+j1.04275941164152933030e-03
  +1.19225615886924362977e-06+j1.09190417958468098843e-03
  +1.30728573946307799788e-06+j1.14336522181981438927e-03
  +1.43341374438578750652e-06+j1.19725172361990150026e-03
  +1.57171104648688784487e-06+j1.25367801935396248371e-03
  +1.72335185814059767525e-06+j1.31276383565322608132e-03
  +1.88962370603946824057e-06+j1.37463454611097199431e-03
  +2.07193836930557366980e-06+j1.43942143807050757648e-03
  +2.27184387405415644500e-06+j1.50726199208351578987e-03
  +2.49103764656967320766e-06+j1.57830017465028396399e-03
  +2.73138093715799663369e-06+j1.65268674488427275149e-03
  +2.99491463760753518324e-06+j1.73057957577623386727e-03
  +3.28387662712113337604e-06+j1.81214399076768512518e-03
  +3.60072079467466972316e-06+j1.89755311638025781808e-03
  +3.94813790013227625906e-06+j1.98698825168630533941e-03
  +4.32907845222904613279e-06+j2.08063925544742147483e-03
  +4.74677779885987497714e-06+j2.17870495179140833200e-03
  +5.20478364414154183291e-06+j2.28139355534479407184e-03
  +5.70698622761472554906e-06+j2.38892311678775550940e-03
  +6.25765142391039090689e-06+j2.50152198985118846830e-03
  +6.86145704642870763129e-06+j2.61942932083228949627e-03
  +7.52353266629642739927e-06+j2.74289556176545833849e-03
  +8.24950328833418374875e-06+j2.87218300845013723224e-03
  +9.04553725925787557654e-06+j3.00756636460670044586e-03
  +9.91839882016851227061e-06+j3.14933333350621335114e-03
  +1.08755057558956713925e-05+j3.29778523850026133307e-03
  +1.19249926383324823939e-05+j3.45323767396382100975e-03
  +1.30757802099574969677e-05+j3.61602118825780655814e-03
  +1.43376515077510212581e-05+j3.78648200041942174440e-03
  +1.57213353872040530732e-05+j3.96498275239851385998e-03
  +1.72385981716686849060e-05+j4.15190329877777354606e-03
  +1.89023442245609473258e-05+j4.34764153604500370315e-03
  +2.07267263216253324362e-05+j4.55261427362799089152e-03
  +2.27272667884176832545e-05+j4.76725814905822140727e-03
  +2.49209904652689943265e-05+j4.99203058980042958109e-03
  +2.73265706692775079312e-05+j5.22741082447256751736e-03
  +2.99644894414887652458e-05+j5.47390094638743746058e-03
  +3.28572134986520331536e-05+j5.73202703257522528518e-03
  +3.60293874542482473193e-05+j6.00234032169852209371e-03
  +3.95080460345104611183e-05+j6.28541845455089700362e-03
  +4.33228471937734368525e-05+j6.58186678114077751423e-03
  +4.75063282318077229299e-05+j6.89231973870812596877e-03
  +5.20941872362214948079e-05+j7.21744230540692990883e-03
  +5.71255924183002266985e-05+j7.55793153481765147411e-03
  +6.26435221839256872745e-05+j7.91451817693623708994e-03
  +6.86951390860721463781e-05+j8.28796839182788583344e-03
  +7.53322011459299799080e-05+j8.67908556274222392490e-03
  +8.26115144107026320996e-05+j9.08871221617173902230e-03
  +9.05954310430342557667e-05+j9.51773205710837455484e-03
  +9.93523977161653331540e-05+j9.96707212862600784586e-03
  +1.08957559627637654356e-04+j1.04377051059051130510e-02
  +1.19493426051172114423e-04+j1.09306517359351769436e-02
  +1.31050604031193864774e-04+j1.14469834354023990153e-02
  +1.43728607598938586641e-04+j1.19878250607145693529e-02
  +1.57636750766781161097e-04+j1.25543578657607533822e-02
  +1.72895133554302928968e-04+j1.31478226648786278297e-02
  +1.89635731434479481343e-04+j1.37695232206435803218e-02
  +2.08003599883392479349e-04+j1.44208298785412497578e-02
  +2.28158207198302169201e-04+j1.51031834733870006654e-02
  +2.50274910447918861461e-04+j1.58180995355674501590e-02
  +2.74546591372302713815e-04+j1.65671728288645722649e-02
  +3.01185471302248405304e-04+j1.73520822558598103447e-02
  +3.30425126772032889001e-04+j1.81745961717896392651e-02
  +3.62522730518469009104e-04+j1.90365781533427501360e-02
  +3.97761546069379820587e-04+j1.99399932753711907341e-02
  +4.36453708217760969965e-04+j2.08869149559800688920e-02
  +4.78943326464940108498e-04+j2.18795324391307492717e-02
  +5.25609954131465040988e-04+j2.29201589939420566355e-02
  +5.76872472441749325339e-04+j2.40112409215410688157e-02
  +6.33193446686894172680e-04+j2.51553674738805368993e-02
  +6.95084020803354699948e-04+j2.63552818047422636460e-02
  +7.63109427671986679728e-04+j2.76138930915831755375e-02
  +8.37895205510386120208e-04+j2.89342899884370563512e-02
  +9.20134226355265555201e-04+j3.03197555953334703382e-02
  +1.01059466137344783690e-03+j3.17737841593325395784e-02
  +1.11012903029923280449e-03+j3.33000997571376647355e-02
  +1.21968450954508425381e-03+j3.49026772503523013969e-02
  +1.34031470656525790973e-03+j3.65857658530284526877e-02
  +1.47319314824319834434e-03+j3.83539157087143811609e-02
  +1.61962878016070634633e-03+j4.02120079425932336337e-02
  +1.78108383379382471078e-03+j4.21652887357696487536e-02
  +1.95919449277658346692e-03+j4.42194080660976013286e-02
  +2.15579488097676717079e-03+j4.63804638765927187971e-02
  +2.37294500886905956882e-03+j4.86550525727179050683e-02
  +2.61296345656205882338e-03+j5.10503269189995501076e-02
  +2.87846574963279830048e-03+j5.35740626101940328740e-02
  +3.17240960784582288687e-03+j5.62347350409501886559e-02
  +3.49814853031084989007e-03+j5.90416081011580703986e-02
  +3.85949554144793651259e-03+j6.20048371952824362019e-02
  +4.26079938399293641632e-03+j6.51355891399034159228e-02
  +4.70703604001706903126e-03+j6.84461821560198441228e-02
  +5.20391923158310641673e-03+j7.19502498690189895569e-02
  +5.75803455783060590817e-03+j7.56629340949809825467e-02
  +6.37700324543757218754e-03+j7.96011122726639624991e-02
  +7.06968323592087072998e-03+j8.37836667547118829624e-02
  +7.84641766159779353862e-03+j8.82318048748724215180e-02
  +8.71934389127795861363e-03+j9.29694408576473840800e-02
  +9.70278056838977907839e-03+j9.80236533579087604418e-02
  +1.08137158656939243173e-02+j1.03425235870506809777e-01
  +1.20724281913857488940e-02+j1.09209361636031856979e-01
  +1.35032817541373001413e-02+j1.15416390239886146318e-01
  +1.51357551438890906154e-02+j1.22092850159676968858e-01
  +1.70057835358401396308e-02+j1.29292640402198788507e-01
  +1.91575275097105000854e-02+j1.37078505424538338309e-01
  +2.16457287777346504831e-02+j1.45523850977822194475e-01
  +2.45388831186316332122e-02+j1.54714984193263488388e-01
  +2.79235658575217177146e-02+j1.64753878034243461670e-01
  +3.19104051404092634026e-02+j1.75761574822781457828e-01
  +3.66424453443359790517e-02+j1.87882347610208805255e-01
  +4.23070306325125239377e-02+j2.01288712528974567118e-01
  +4.91529561699362571581e-02+j2.16187287021444851653e-01
  +5.75156323795328952575e-02+j2.32825222885140459272e-01
  +6.78546401845940561071e-02+j2.51496298163637665990e-01
  +8.08107474295957917132e-02+j2.72544254258764107046e-01
  +9.72938903921824749244e-02+j2.96357536237120966494e-01
  +1.18620770020322036098e-01+j3.23341743268802106481e-01
  +1.46731435663896486732e-01+j3.53837987576105683640e-01
  +1.84526921271338045782e-01+j3.87913310673221767289e-01
  +2.36370258451867348848e-01+j4.24852161782501458465e-01
  +3.08714030147717310992e-01+j4.61962853201068113229e-01
  +4.10403469466565307133e-01+j4.91906964492648035581e-01
  +5.50665141430992988170e-01+j4.97426420130432422884e-01
  +7.28835145461779632114e-01+j4.44560992667469900841e-01
  +9.08217214429427710520e-01+j2.88719077726911965698e-01
  +9.99297907249526273787e-01+j2.64877295411193383612e-02
  +9.34462711065258577747e-01-j2.47471518954859914796e-01
  +7.63393271962046426893e-01-j4.24998805039646543324e-01
  +5.80666218745552353830e-01-j4.93450059431848331304e-01
  +4.32846116279891501843e-01-j4.95469833492722555590e-01
  +3.24746622290983333325e-01-j4.68280101650263069768e-01
  +2.47782969944833481035e-01-j4.31725109010526797437e-01
  +1.92759654882138670162e-01-j3.94465930508399564847e-01
  +1.52784735702748863950e-01-j3.59779877479258214379e-01
  +1.23162430773368830605e-01-j3.28623563396424678285e-01
  +1.00768065368443293650e-01-j3.01021365305428834080e-01
  +8.35161383777992955002e-02-j2.76660790514773824444e-01
  +6.99955347484288586957e-02-j2.55139490992104867040e-01
  +5.92343759319273674424e-02-j2.36062840446950666928e-01
  +5.05506060664000153593e-02-j2.19078164801332186951e-01
  +4.34566323233772228152e-02-j2.03882695269824276707e-01
  +3.75976958763775889749e-02-j1.90221211070598056336e-01
  +3.27114027021097458769e-02-j1.77880203607287790124e-01
  +2.86006915903574444882e-02-j1.66681408774076278423e-01
  +2.51154663392185138748e-02-j1.56475811836149614198e-01
  +2.21399065737814954025e-02-j1.47138475969699117352e-01
  +1.95835621237914168924e-02-j1.38564231381460872816e-01
  +1.73750090735266086994e-02-j1.30664142492198209755e-01
  +1.54572670748474548519e-02-j1.23362636034677425334e-01
  +1.37844454110556922932e-02-j1.16595173466852053412e-01
  +1.23192581941559790859e-02-j1.10306364601965287142e-01
  +1.10311623471197294000e-02-j1.04448436103137601294e-01
  +9.89494731422483654593e-03-j9.89799845012796081223e-02
  +8.88965619154069575103e-03-j9.38649572755290845238e-02
  +7.99775263326775280592e-03-j8.90718170134909281721e-02
  +7.20447186680856031110e-03-j8.45728529253265970400e-02
  +6.49731093417088567676e-03-j8.03436113502224297234e-02
  +5.86562516089451837370e-03-j7.63624227114776676917e-02
  +5.30030635793485652152e-03-j7.26100069580419005266e-02
  +4.79352440985549195507e-03-j6.90691431363355812234e-02
  +4.33851839003769699371e-03-j6.57243915773816911319e-02
  +3.92942664883821988348e-03-j6.25618594276866196724e-02
  +3.56114777619506500325e-03-j5.95690020288334662335e-02
  +3.22922617946381964454e-03-j5.67344540622863949264e-02
  +2.92975740564586787165e-03-j5.40478855015617681845e-02
  +2.65930939291525274271e-03-j5.14998783150795932939e-02
  +2.41485664477801998534e-03-j4.90818205872927265654e-02
  +2.19372494336376750584e-03-j4.67858153101624527070e-02
  +1.99354470174761952070e-03-j4.46046015705751294766e-02
  +1.81221143243851185237e-03-j4.25314862444595431779e-02
  +1.64785210524925397092e-03-j4.05602846228731439560e-02
  +1.49879640141661538144e-03-j3.86852686531154385530e-02
  +1.36355205619108745332e-03-j3.69011216900129584984e-02
  +1.24078362988415727940e-03-j3.52028988276245347055e-02
  +1.12929416572992466321e-03-j3.35859920266943015599e-02
  +1.02800928817065907739e-03-j3.20460993737786067892e-02
  +9.35963372164060796246e-04-j3.05791979085460671750e-02
  +8.52287476599119186126e-04-j2.91815195398791998871e-02
  +7.76198785835158200884e-04-j2.78495296419890431272e-02
  +7.06991345047654532428e-04-j2.65799079811364739878e-02
  +6.44027909288141667613e-04-j2.53695316736474198172e-02
  +5.86732754378749862649e-04-j2.42154599182771920751e-02
  +5.34585321103906449883e-04-j2.31149202818951259031e-02
  +4.87114583541813691431e-04-j2.20652963479830606375e-02
  +4.43894048524196558388e-04-j2.10641165634327352796e-02
  +4.04537306709649600520e-04-j2.01090441413093977407e-02
  +3.68694067075644169636e-04-j1.91978678962156472376e-02
  +3.36046616158968899923e-04-j1.83284939051395340259e-02
  +3.06306651414343315398e-04-j1.74989379006167886099e-02
  +2.79212444868998392513e-04-j1.67073183150267604025e-02
  +2.54526299033895988567e-04-j1.59518499051676185263e-02
</dep>
<dep argH acfrequency>
  +1.79963999862614628000e+02
  +1.79962303214530578543e+02
  +1.79960526603829521264e+02
  +1.79958666261684669507e+02
  +1.79956718241604932018e+02
  +1.79954678411054914022e+02
  +1.79952542442679344958e+02
  +1.79950305805112691360e+02
  +1.79947963753354201799e+02
  +1.79945511318688261326e+02
  +1.79942943298127232765e+02
  +1.79940254243355752806e+02
  +1.79937438449150818087e+02
  +1.79934489941254128098e+02
  +1.79931402463669371627e+02
  +1.79928169465358138268e+02
  +1.79924784086303986896e+02
  +1.79921239142916050469e+02
  +1.79917527112738753203e+02
  +1.79913640118435637305e+02
  +1.79909569911011203658e+02
  +1.79905307852233960375e+02
  +1.79900844896222338321e+02
  +1.79896171570152404229e+02
  +1.79891277954044227272e+02
  +1.79886153659582134878e+02
  +1.79880787807920796695e+02
  +1.79875169006427853446e+02
  +1.79869285324309032603e+02
  +1.79863124267061152750e+02
  +1.79856672749693899505e+02
  +1.79849917068657816799e+02
  +1.79842842872413712030e+02
  +1.79835435130573330298e+02
  +1.79827678101538509736e+02
  +1.79819555298560317169e+02
  +1.79811049454136224313e+02
  +1.79802142482657501432e+02
  +1.79792815441213321037e+02
  +1.79783048488452976699e+02
  +1.79772820841400573499e+02
  +1.79762110730108958023e+02
  +1.79750895350033033537e+02
  +1.79739150811993681600e+02
  +1.79726852089593450046e+02
  +1.79713972963937095528e+02
  +1.79700485965495914797e+02
  +1.79686362312945504982e+02
  +1.79671571848791131742e+02
  +1.79656082971579252217e+02
  +1.79639862564479699358e+02
  +1.79622875920001092709e+02
  +1.79605086660582941249e+02
  +1.79586456654784939246e+02
  +1.79566945928766926954e+02
  +1.79546512572723969470e+02
  +1.79525112641909174727e+02
  +1.79502700051837962292e+02
  +1.79479226467228272668e+02
  +1.79454641184182122515e+02
  +1.79428891005060791031e+02
  +1.79401920105447800324e+02
  +1.79373669892521661495e+02
  +1.79344078854085665853e+02
  +1.79313082397411420743e+02
  +1.79280612676952500806e+02
  +1.79246598409868255430e+02
  +1.79210964678167044895e+02
  +1.79173632716125155184e+02
  +1.79134519681466116481e+02
  +1.79093538408584151966e+02
  +1.79050597141867996243e+02
  +1.79005599246916403899e+02
